T279C 9463:936 SEGGER J-Link V4.90 Log File (0001ms, 5722ms total)
T279C 9463:936 DLL Compiled: Jul 28 2014 10:35:20 (0001ms, 5722ms total)
T279C 9463:936 Logging started @ 2019-11-15 21:44 (0001ms, 5722ms total)
T279C 9463:937 JLINK_SetWarnOutHandler(...) (0000ms, 5722ms total)
T279C 9463:937 JLINK_OpenEx(...)
Firmware: J-Link ARM V8 compiled Nov 28 2014 13:44:46
Hardware: V8.00
S/N: 308622870
Feature(s): RDI,FlashDL,FlashBP,JFlash,GDBFULL  returns O.K. (0274ms, 5996ms total)
T279C 9464:212 JLINK_GetEmuCaps()  returns 0xB9FF7BBF (0000ms, 5996ms total)
T279C 9464:212 JLINK_TIF_GetAvailable(...) (0001ms, 5997ms total)
T279C 9464:213 JLINK_SetErrorOutHandler(...) (0000ms, 5997ms total)
T279C 9464:213 JLINK_ExecCommand("ProjectFile = "C:\Users\win\Desktop\Ä£°å\Project\JLinkSettings.ini"", ...)  returns 0x00 (0001ms, 5998ms total)
T279C 9464:215 JLINK_ExecCommand("Device = STM32F407VG", ...)Device "STM32F407VG" selected (1024 KB flash, 128 KB RAM).  returns 0x00 (0001ms, 5999ms total)
T279C 9464:216 JLINK_ExecCommand("DisableConnectionTimeout", ...)  returns 0x01 (0000ms, 5999ms total)
T279C 9464:217 JLINK_GetHardwareVersion()  returns 0x13880 (0000ms, 5999ms total)
T279C 9464:217 JLINK_GetDLLVersion()  returns 49000 (0000ms, 5999ms total)
T279C 9464:217 JLINK_GetFirmwareString(...) (0000ms, 5999ms total)
T279C 9464:217 JLINK_GetDLLVersion()  returns 49000 (0000ms, 5999ms total)
T279C 9464:217 JLINK_GetCompileDateTime() (0000ms, 5999ms total)
T279C 9464:217 JLINK_GetFirmwareString(...) (0000ms, 5999ms total)
T279C 9464:217 JLINK_GetHardwareVersion()  returns 0x13880 (0000ms, 5999ms total)
T279C 9464:217 JLINK_TIF_Select(JLINKARM_TIF_SWD)  returns 0x00 (0001ms, 6000ms total)
T279C 9464:218 JLINK_SetSpeed(5000) (0001ms, 6001ms total)
T279C 9464:219 JLINK_GetId() >0x108 TIF>Found SWD-DP with ID 0x2BA01477 >0x0D TIF> >0x28 TIF> >0x0D TIF> >0x28 TIF> >0x0D TIF> >0x21 TIF> >0x0D TIF> >0x28 TIF> >0x0D TIF> >0x28 TIF> >0x0D TIF> >0x28 TIF> >0x0D TIF> >0x21 TIF> >0x0D TIF> >0x21 TIF> >0x0D TIF> >0x28 TIF> >0x0D TIF> >0x21 TIF> >0x0D TIF> >0x21 TIF> >0x0D TIF> >0x28 TIF> >0x0D TIF> >0x21 TIF> >0x0D TIF> >0x21 TIF> >0x108 TIF>Found SWD-DP with ID 0x2BA01477 >0x0D TIF> >0x21 TIF> >0x0D TIF> >0x28 TIF> >0x0D TIF> >0x28 TIF> >0x0D TIF>
 >0x21 TIF> >0x0D TIF> >0x28 TIF> >0x0D TIF> >0x21 TIF> >0x0D TIF> >0x21 TIF> >0x0D TIF> >0x21 TIF> >0x0D TIF> >0x21 TIF> >0x0D TIF> >0x28 TIF> >0x0D TIF> >0x28 TIF> >0x0D TIF> >0x21 TIF> >0x0D TIF> >0x28 TIF> >0x0D TIF> >0x28 TIF> >0x0D TIF> >0x28 TIF> >0x0D TIF> >0x21 TIF> >0x0D TIF> >0x21 TIF> >0x0D TIF> >0x28 TIF> >0x0D TIF> >0x21 TIF> >0x0D TIF> >0x21 TIF>Found Cortex-M4 r0p1, Little endian. -- CPU_WriteMem(4 bytes @ 0xE0002000) -- CPU_ReadMem(4 bytes @ 0xE000EDF0)
 -- CPU_ReadMem(4 bytes @ 0xE0002000)FPUnit: 6 code (BP) slots and 2 literal slots -- CPU_ReadMem(4 bytes @ 0xE000EDFC) -- CPU_ReadMem(4 bytes @ 0xE0001000) -- CPU_WriteMem(4 bytes @ 0xE0001000) -- CPU_ReadMem(4 bytes @ 0xE00FF010)TPIU fitted. -- CPU_ReadMem(4 bytes @ 0xE00FF014)ETM fitted. -- CPU_ReadMem(4 bytes @ 0xE00FF018) >0x0D TIF> >0x21 TIF>  returns 0x2BA01477 (0038ms, 6039ms total)
T279C 9464:257 JLINK_GetDLLVersion()  returns 49000 (0000ms, 6039ms total)
T279C 9464:257 JLINK_CORE_GetFound()  returns 0xE0000FF (0000ms, 6039ms total)
T279C 9464:257 JLINK_GetDebugInfo(0x100) -- Value=0xE00FF003  returns 0x00 (0000ms, 6039ms total)
T279C 9464:257 JLINK_GetDebugInfo(0x101)  returns 0xFFFFFFFF (0001ms, 6040ms total)
T279C 9464:258 JLINK_ReadMemEx(0xE0041FF0, 0x0010 Bytes, ..., AccessWidth = 33554436) -- CPU is running -- CPU_ReadMem(16 bytes @ 0xE0041FF0) - Data: 0D 00 00 00 90 00 00 00 05 00 00 00 B1 00 00 00  returns 0x10 (0000ms, 6040ms total)
T279C 9464:258 JLINK_ReadMemEx(0xE0041FD0, 0x0020 Bytes, ..., AccessWidth = 33554436) -- CPU is running -- CPU_ReadMem(32 bytes @ 0xE0041FD0) - Data: 04 00 00 00 00 00 00 00 00 00 00 00 00 00 00 00 ...  returns 0x20 (0001ms, 6041ms total)
T279C 9464:259 JLINK_GetDebugInfo(0x102)  returns 0xFFFFFFFF (0000ms, 6041ms total)
T279C 9464:259 JLINK_GetDebugInfo(0x103)  returns 0xFFFFFFFF (0001ms, 6042ms total)
T279C 9464:260 JLINK_ReadMemEx(0xE0040FF0, 0x0010 Bytes, ..., AccessWidth = 33554436) -- CPU is running -- CPU_ReadMem(16 bytes @ 0xE0040FF0) - Data: 0D 00 00 00 90 00 00 00 05 00 00 00 B1 00 00 00  returns 0x10 (0000ms, 6042ms total)
T279C 9464:260 JLINK_GetDebugInfo(0x104)  returns 0xFFFFFFFF (0000ms, 6042ms total)
T279C 9464:260 JLINK_GetDebugInfo(0x105)  returns 0xFFFFFFFF (0000ms, 6042ms total)
T279C 9464:260 JLINK_GetDebugInfo(0x106)  returns 0xFFFFFFFF (0001ms, 6043ms total)
T279C 9464:261 JLINK_GetDebugInfo(0x107)  returns 0xFFFFFFFF (0000ms, 6043ms total)
T279C 9464:261 JLINK_GetDebugInfo(0x10C)  returns 0xFFFFFFFF (0000ms, 6043ms total)
T279C 9464:261 JLINK_GetDebugInfo(0x01)  returns 0xFFFFFFFF (0000ms, 6043ms total)
T279C 9464:261 JLINK_GetDeviceFamily()  returns 14 (0000ms, 6043ms total)
T279C 9464:261 JLINK_ReadMemU32(0xE000ED00, 0x0001 Items, ...) -- CPU is running -- CPU_ReadMem(4 bytes @ 0xE000ED00) - Data: 41 C2 0F 41  returns 0x01 (0000ms, 6043ms total)
T279C 9464:262 JLINK_GetDebugInfo(0x10F)  returns 0xFFFFFFFF (0000ms, 6043ms total)
T279C 9464:262 JLINK_SetResetType(JLINKARM_RESET_TYPE_NORMAL)  returns JLINKARM_RESET_TYPE_NORMAL (0000ms, 6043ms total)
T279C 9464:262 JLINK_Reset() -- CPU is running -- CPU_WriteMem(4 bytes @ 0xE000EDF0) -- CPU is running -- CPU_WriteMem(4 bytes @ 0xE000EDFC) >0x35 TIF> -- CPU is running -- CPU_WriteMem(4 bytes @ 0xE000ED0C) -- CPU is running -- CPU_ReadMem(4 bytes @ 0xE000EDF0) -- CPU is running -- CPU_ReadMem(4 bytes @ 0xE000EDF0) -- CPU is running -- CPU_WriteMem(4 bytes @ 0xE000EDF0) -- CPU is running -- CPU_WriteMem(4 bytes @ 0xE000EDFC) -- CPU is running -- CPU_ReadMem(4 bytes @ 0xE000EDF0)
 -- CPU_WriteMem(4 bytes @ 0xE0002000) -- CPU_ReadMem(4 bytes @ 0xE000EDFC) -- CPU_ReadMem(4 bytes @ 0xE0001000) (0019ms, 6062ms total)
T279C 9464:281 JLINK_ReadReg(R15 (PC))  returns 0x08000CBC (0001ms, 6063ms total)
T279C 9464:282 JLINK_ReadReg(XPSR)  returns 0x01000000 (0000ms, 6063ms total)
T279C 9464:282 JLINK_Halt()  returns 0x00 (0000ms, 6063ms total)
T279C 9464:282 JLINK_ReadMemU32(0xE000EDF0, 0x0001 Items, ...) -- CPU_ReadMem(4 bytes @ 0xE000EDF0) - Data: 03 00 03 00  returns 0x01 (0000ms, 6063ms total)
T279C 9464:282 JLINK_WriteU32(0xE000EDF0, 0xA05F0003) -- CPU_WriteMem(4 bytes @ 0xE000EDF0)  returns 0x00 (0001ms, 6064ms total)
T279C 9464:283 JLINK_WriteU32(0xE000EDFC, 0x01000000) -- CPU_WriteMem(4 bytes @ 0xE000EDFC)  returns 0x00 (0001ms, 6065ms total)
T279C 9464:284 JLINK_GetHWStatus(...)  returns 0x00 (0000ms, 6065ms total)
T279C 9464:285 JLINK_GetNumBPUnits(Type = 0xFFFFFF00)  returns 0x06 (0000ms, 6065ms total)
T279C 9464:285 JLINK_GetNumBPUnits(Type = 0xF0)  returns 0x2000 (0000ms, 6065ms total)
T279C 9464:285 JLINK_GetNumWPUnits()  returns 0x04 (0000ms, 6065ms total)
T279C 9464:285 JLINK_GetSpeed()  returns 0xFA0 (0000ms, 6065ms total)
T279C 9464:285 JLINK_ReadMemU32(0xE000E004, 0x0001 Items, ...) -- CPU_ReadMem(4 bytes @ 0xE000E004) - Data: 02 00 00 00  returns 0x01 (0001ms, 6066ms total)
T279C 9464:286 JLINK_ReadMemU32(0xE000E004, 0x0001 Items, ...) -- CPU_ReadMem(4 bytes @ 0xE000E004) - Data: 02 00 00 00  returns 0x01 (0000ms, 6066ms total)
T279C 9464:286 JLINK_WriteMemEx(0xE0001000, 0x001C Bytes, ..., AccessWidth = 33554436) - Data: 01 00 00 00 00 00 00 00 00 00 00 00 00 00 00 00 ... -- CPU_WriteMem(28 bytes @ 0xE0001000)  returns 0x1C (0001ms, 6067ms total)
T279C 9464:287 JLINK_ReadReg(R15 (PC))  returns 0x08000CBC (0000ms, 6067ms total)
T279C 9464:287 JLINK_ReadReg(XPSR)  returns 0x01000000 (0000ms, 6067ms total)
T279C 9464:331 JLINK_ReadMemEx(0xE0001004, 0x0004 Bytes, ..., AccessWidth = 33554432)Mis-aligned memory read: Address: 0xE0001004, NumBytes: 4, Alignment: 2 (Halfword-aligned)
  ***** Mis-aligned memory read: Address: 0xE0001004, NumBytes: 4, Alignment: 2 (Halfword-aligned) -- CPU_ReadMem(4 bytes @ 0xE0001004) - Data: 00 00 00 00  returns 0x04 (0001ms, 6068ms total)
T279C 9464:462 JLINK_SetResetType(JLINKARM_RESET_TYPE_NORMAL)  returns JLINKARM_RESET_TYPE_NORMAL (0000ms, 6068ms total)
T279C 9464:462 JLINK_Reset() -- CPU_WriteMem(4 bytes @ 0xE000EDF0) -- CPU_WriteMem(4 bytes @ 0xE000EDFC) >0x35 TIF> -- CPU_WriteMem(4 bytes @ 0xE000ED0C) -- CPU_ReadMem(4 bytes @ 0xE000EDF0) -- CPU_ReadMem(4 bytes @ 0xE000EDF0) -- CPU_WriteMem(4 bytes @ 0xE000EDF0) -- CPU_WriteMem(4 bytes @ 0xE000EDFC) -- CPU is running -- CPU_ReadMem(4 bytes @ 0xE000EDF0) -- CPU_WriteMem(4 bytes @ 0xE0002000) -- CPU_ReadMem(4 bytes @ 0xE000EDFC) -- CPU_ReadMem(4 bytes @ 0xE0001000) (0020ms, 6088ms total)
T279C 9464:482 JLINK_ReadReg(R15 (PC))  returns 0x08000CBC (0000ms, 6088ms total)
T279C 9464:482 JLINK_ReadReg(XPSR)  returns 0x01000000 (0000ms, 6088ms total)
T279C 9464:485 JLINK_ReadMemEx(0x08000CBC, 0x003C Bytes, ..., AccessWidth = 33554432)Mis-aligned memory read: Address: 0x08000CBC, NumBytes: 60, Alignment: 2 (Halfword-aligned)
  ***** Mis-aligned memory read: Address: 0x08000CBC, NumBytes: 60, Alignment: 2 (Halfword-aligned) -- CPU_ReadMem(128 bytes @ 0x08000C80) -- Updating C cache (128 bytes @ 0x08000C80) -- Read from C cache (60 bytes @ 0x08000CBC) - Data: 09 48 80 47 09 48 00 47 FE E7 FE E7 FE E7 FE E7 ...  returns 0x3C (0001ms, 6089ms total)
T279C 9464:486 JLINK_ReadMemEx(0x08000CBC, 0x0002 Bytes, ..., AccessWidth = 33554432)Mis-aligned memory read: Address: 0x08000CBC, NumBytes: 2, Alignment: 2 (Halfword-aligned)
  ***** Mis-aligned memory read: Address: 0x08000CBC, NumBytes: 2, Alignment: 2 (Halfword-aligned) -- Read from C cache (2 bytes @ 0x08000CBC) - Data: 09 48  returns 0x02 (0001ms, 6090ms total)
T279C 9464:487 JLINK_ReadMemEx(0x08000CBE, 0x0002 Bytes, ..., AccessWidth = 33554432)Mis-aligned memory read: Address: 0x08000CBE, NumBytes: 2, Alignment: 2 (Halfword-aligned)
  ***** Mis-aligned memory read: Address: 0x08000CBE, NumBytes: 2, Alignment: 2 (Halfword-aligned) -- Read from C cache (2 bytes @ 0x08000CBE) - Data: 80 47  returns 0x02 (0000ms, 6090ms total)
T279C 9464:487 JLINK_ReadMemEx(0x08000CBE, 0x0002 Bytes, ..., AccessWidth = 33554432)Mis-aligned memory read: Address: 0x08000CBE, NumBytes: 2, Alignment: 2 (Halfword-aligned)
  ***** Mis-aligned memory read: Address: 0x08000CBE, NumBytes: 2, Alignment: 2 (Halfword-aligned) -- Read from C cache (2 bytes @ 0x08000CBE) - Data: 80 47  returns 0x02 (0000ms, 6090ms total)
T279C 9464:487 JLINK_ReadMemEx(0x08000CC0, 0x003C Bytes, ..., AccessWidth = 33554432)Mis-aligned memory read: Address: 0x08000CC0, NumBytes: 60, Alignment: 2 (Halfword-aligned)
  ***** Mis-aligned memory read: Address: 0x08000CC0, NumBytes: 60, Alignment: 2 (Halfword-aligned) -- Read from C cache (60 bytes @ 0x08000CC0) - Data: 09 48 00 47 FE E7 FE E7 FE E7 FE E7 FE E7 FE E7 ...  returns 0x3C (0000ms, 6090ms total)
T279C 9464:487 JLINK_ReadMemEx(0x08000CC0, 0x0002 Bytes, ..., AccessWidth = 33554432)Mis-aligned memory read: Address: 0x08000CC0, NumBytes: 2, Alignment: 2 (Halfword-aligned)
  ***** Mis-aligned memory read: Address: 0x08000CC0, NumBytes: 2, Alignment: 2 (Halfword-aligned) -- Read from C cache (2 bytes @ 0x08000CC0) - Data: 09 48  returns 0x02 (0001ms, 6091ms total)
T279C 9467:784 JLINK_ReadReg(R0)  returns 0x00000000 (0001ms, 6092ms total)
T279C 9467:785 JLINK_ReadReg(R1)  returns 0x00000000 (0000ms, 6092ms total)
T279C 9467:785 JLINK_ReadReg(R2)  returns 0x00000000 (0000ms, 6092ms total)
T279C 9467:785 JLINK_ReadReg(R3)  returns 0x00000000 (0000ms, 6092ms total)
T279C 9467:785 JLINK_ReadReg(R4)  returns 0x00000000 (0000ms, 6092ms total)
T279C 9467:785 JLINK_ReadReg(R5)  returns 0x00000000 (0000ms, 6092ms total)
T279C 9467:785 JLINK_ReadReg(R6)  returns 0x00000000 (0000ms, 6092ms total)
T279C 9467:785 JLINK_ReadReg(R7)  returns 0x00000000 (0000ms, 6092ms total)
T279C 9467:785 JLINK_ReadReg(R8)  returns 0x00000000 (0000ms, 6092ms total)
T279C 9467:785 JLINK_ReadReg(R9)  returns 0x00000000 (0000ms, 6092ms total)
T279C 9467:785 JLINK_ReadReg(R10)  returns 0x00000000 (0000ms, 6092ms total)
T279C 9467:785 JLINK_ReadReg(R11)  returns 0x00000000 (0000ms, 6092ms total)
T279C 9467:785 JLINK_ReadReg(R12)  returns 0x00000000 (0000ms, 6092ms total)
T279C 9467:785 JLINK_ReadReg(R13 (SP))  returns 0x20000698 (0000ms, 6092ms total)
T279C 9467:785 JLINK_ReadReg(R14)  returns 0xFFFFFFFF (0000ms, 6092ms total)
T279C 9467:785 JLINK_ReadReg(R15 (PC))  returns 0x08000CBC (0000ms, 6092ms total)
T279C 9467:785 JLINK_ReadReg(XPSR)  returns 0x01000000 (0000ms, 6092ms total)
T279C 9467:785 JLINK_ReadReg(MSP)  returns 0x20000698 (0000ms, 6092ms total)
T279C 9467:785 JLINK_ReadReg(PSP)  returns 0x00000000 (0000ms, 6092ms total)
T279C 9467:785 JLINK_ReadReg(CFBP)  returns 0x00000000 (0000ms, 6092ms total)
T279C 9467:785 JLINK_ReadReg(FPSCR)  returns 0x00000000 (0004ms, 6096ms total)
T279C 9467:789 JLINK_ReadReg(FPS0)  returns 0x00000000 (0000ms, 6096ms total)
T279C 9467:789 JLINK_ReadReg(FPS1)  returns 0x00000000 (0000ms, 6096ms total)
T279C 9467:789 JLINK_ReadReg(FPS2)  returns 0x00000000 (0000ms, 6096ms total)
T279C 9467:789 JLINK_ReadReg(FPS3)  returns 0x00000000 (0000ms, 6096ms total)
T279C 9467:789 JLINK_ReadReg(FPS4)  returns 0x00000000 (0000ms, 6096ms total)
T279C 9467:789 JLINK_ReadReg(FPS5)  returns 0x00000000 (0000ms, 6096ms total)
T279C 9467:789 JLINK_ReadReg(FPS6)  returns 0x00000000 (0000ms, 6096ms total)
T279C 9467:789 JLINK_ReadReg(FPS7)  returns 0x00000000 (0000ms, 6096ms total)
T279C 9467:789 JLINK_ReadReg(FPS8)  returns 0x00000000 (0000ms, 6096ms total)
T279C 9467:789 JLINK_ReadReg(FPS9)  returns 0x00000000 (0000ms, 6096ms total)
T279C 9467:789 JLINK_ReadReg(FPS10)  returns 0x00000000 (0000ms, 6096ms total)
T279C 9467:789 JLINK_ReadReg(FPS11)  returns 0x00000000 (0000ms, 6096ms total)
T279C 9467:789 JLINK_ReadReg(FPS12)  returns 0x00000000 (0000ms, 6096ms total)
T279C 9467:789 JLINK_ReadReg(FPS13)  returns 0x00000000 (0000ms, 6096ms total)
T279C 9467:789 JLINK_ReadReg(FPS14)  returns 0x00000000 (0000ms, 6096ms total)
T279C 9467:789 JLINK_ReadReg(FPS15)  returns 0x00000000 (0000ms, 6096ms total)
T279C 9467:789 JLINK_ReadReg(FPS16)  returns 0x00000000 (0000ms, 6096ms total)
T279C 9467:789 JLINK_ReadReg(FPS17)  returns 0x00000000 (0000ms, 6096ms total)
T279C 9467:789 JLINK_ReadReg(FPS18)  returns 0x00000000 (0000ms, 6096ms total)
T279C 9467:789 JLINK_ReadReg(FPS19)  returns 0x00000000 (0000ms, 6096ms total)
T279C 9467:789 JLINK_ReadReg(FPS20)  returns 0x00000000 (0000ms, 6096ms total)
T279C 9467:789 JLINK_ReadReg(FPS21)  returns 0x00000000 (0000ms, 6096ms total)
T279C 9467:789 JLINK_ReadReg(FPS22)  returns 0x00000000 (0000ms, 6096ms total)
T279C 9467:789 JLINK_ReadReg(FPS23)  returns 0x00000000 (0000ms, 6096ms total)
T279C 9467:789 JLINK_ReadReg(FPS24)  returns 0x00000000 (0000ms, 6096ms total)
T279C 9467:789 JLINK_ReadReg(FPS25)  returns 0x00000000 (0000ms, 6096ms total)
T279C 9467:789 JLINK_ReadReg(FPS26)  returns 0x00000000 (0000ms, 6096ms total)
T279C 9467:789 JLINK_ReadReg(FPS27)  returns 0x00000000 (0000ms, 6096ms total)
T279C 9467:789 JLINK_ReadReg(FPS28)  returns 0x00000000 (0000ms, 6096ms total)
T279C 9467:789 JLINK_ReadReg(FPS29)  returns 0x00000000 (0000ms, 6096ms total)
T279C 9467:789 JLINK_ReadReg(FPS30)  returns 0x00000000 (0000ms, 6096ms total)
T279C 9467:789 JLINK_ReadReg(FPS31)  returns 0x00000000 (0000ms, 6096ms total)
T279C 9467:839 JLINK_ReadMemEx(0x20000010, 0x0004 Bytes, ..., AccessWidth = 33554432)Mis-aligned memory read: Address: 0x20000010, NumBytes: 4, Alignment: 2 (Halfword-aligned)
  ***** Mis-aligned memory read: Address: 0x20000010, NumBytes: 4, Alignment: 2 (Halfword-aligned) -- CPU_ReadMem(64 bytes @ 0x20000000) -- Updating C cache (64 bytes @ 0x20000000) -- Read from C cache (4 bytes @ 0x20000010) - Data: 00 00 00 00  returns 0x04 (0001ms, 6097ms total)
T279C 9467:840 JLINK_ReadMemEx(0x20000010, 0x0004 Bytes, ..., AccessWidth = 33554432)Mis-aligned memory read: Address: 0x20000010, NumBytes: 4, Alignment: 2 (Halfword-aligned)
  ***** Mis-aligned memory read: Address: 0x20000010, NumBytes: 4, Alignment: 2 (Halfword-aligned) -- Read from C cache (4 bytes @ 0x20000010) - Data: 00 00 00 00  returns 0x04 (0000ms, 6097ms total)
T279C 9467:840 JLINK_ReadMemEx(0x20000010, 0x0004 Bytes, ..., AccessWidth = 33554432)Mis-aligned memory read: Address: 0x20000010, NumBytes: 4, Alignment: 2 (Halfword-aligned)
  ***** Mis-aligned memory read: Address: 0x20000010, NumBytes: 4, Alignment: 2 (Halfword-aligned) -- Read from C cache (4 bytes @ 0x20000010) - Data: 00 00 00 00  returns 0x04 (0001ms, 6098ms total)
T279C 9467:879 JLINK_ReadMemEx(0x20000000, 0x0004 Bytes, ..., AccessWidth = 33554432)Mis-aligned memory read: Address: 0x20000000, NumBytes: 4, Alignment: 2 (Halfword-aligned)
  ***** Mis-aligned memory read: Address: 0x20000000, NumBytes: 4, Alignment: 2 (Halfword-aligned) -- Read from C cache (4 bytes @ 0x20000000) - Data: 00 00 00 00  returns 0x04 (0000ms, 6098ms total)
T279C 9467:879 JLINK_ReadMemEx(0x20000000, 0x0004 Bytes, ..., AccessWidth = 33554432)Mis-aligned memory read: Address: 0x20000000, NumBytes: 4, Alignment: 2 (Halfword-aligned)
  ***** Mis-aligned memory read: Address: 0x20000000, NumBytes: 4, Alignment: 2 (Halfword-aligned) -- Read from C cache (4 bytes @ 0x20000000) - Data: 00 00 00 00  returns 0x04 (0000ms, 6098ms total)
T279C 9467:879 JLINK_ReadMemEx(0x20000000, 0x0004 Bytes, ..., AccessWidth = 33554432)Mis-aligned memory read: Address: 0x20000000, NumBytes: 4, Alignment: 2 (Halfword-aligned)
  ***** Mis-aligned memory read: Address: 0x20000000, NumBytes: 4, Alignment: 2 (Halfword-aligned) -- Read from C cache (4 bytes @ 0x20000000) - Data: 00 00 00 00  returns 0x04 (0000ms, 6098ms total)
T3A04 9467:926 JLINK_ReadMemEx(0x08000CBC, 0x0002 Bytes, ..., AccessWidth = 33554432)Mis-aligned memory read: Address: 0x08000CBC, NumBytes: 2, Alignment: 2 (Halfword-aligned)
  ***** Mis-aligned memory read: Address: 0x08000CBC, NumBytes: 2, Alignment: 2 (Halfword-aligned) -- Read from C cache (2 bytes @ 0x08000CBC) - Data: 09 48  returns 0x02 (0001ms, 6099ms total)
T3A04 9467:927 JLINK_SetBPEx(Addr = 0x08000228, Type = 0xFFFFFFF2)  returns 0x00000001 (0000ms, 6099ms total)
T3A04 9467:927 JLINK_SetBPEx(Addr = 0x080002D2, Type = 0xFFFFFFF2)  returns 0x00000002 (0000ms, 6099ms total)
T3A04 9467:927 JLINK_SetBPEx(Addr = 0x08000240, Type = 0xFFFFFFF2)  returns 0x00000003 (0000ms, 6099ms total)
T3A04 9467:927 JLINK_SetBPEx(Addr = 0x0800024A, Type = 0xFFFFFFF2)  returns 0x00000004 (0000ms, 6099ms total)
T3A04 9467:927 JLINK_Go() -- CPU_WriteMem(4 bytes @ 0xE0002000) -- CPU_WriteMem(4 bytes @ 0xE0002008) -- CPU_WriteMem(4 bytes @ 0xE0002000) -- CPU_WriteMem(4 bytes @ 0xE000200C) -- CPU_WriteMem(4 bytes @ 0xE0002000) -- CPU_WriteMem(4 bytes @ 0xE0002010) -- CPU_WriteMem(4 bytes @ 0xE0002000) -- CPU_WriteMem(4 bytes @ 0xE0002014) -- CPU_WriteMem(4 bytes @ 0xE0002018) -- CPU_WriteMem(4 bytes @ 0xE000201C) -- CPU_WriteMem(4 bytes @ 0xE0001004) (0005ms, 6104ms total)
T3A04 9468:033 JLINK_IsHalted()  returns TRUE (0002ms, 6106ms total)
T3A04 9468:035 JLINK_Halt()  returns 0x00 (0000ms, 6104ms total)
T3A04 9468:035 JLINK_IsHalted()  returns TRUE (0000ms, 6104ms total)
T3A04 9468:035 JLINK_IsHalted()  returns TRUE (0000ms, 6104ms total)
T3A04 9468:035 JLINK_IsHalted()  returns TRUE (0000ms, 6104ms total)
T3A04 9468:035 JLINK_ReadReg(R15 (PC))  returns 0x08000228 (0000ms, 6104ms total)
T3A04 9468:035 JLINK_ReadReg(XPSR)  returns 0x21000000 (0000ms, 6104ms total)
T3A04 9468:035 JLINK_ClrBPEx(BPHandle = 0x00000001)  returns 0x00 (0000ms, 6104ms total)
T3A04 9468:035 JLINK_ClrBPEx(BPHandle = 0x00000002)  returns 0x00 (0000ms, 6104ms total)
T3A04 9468:035 JLINK_ClrBPEx(BPHandle = 0x00000003)  returns 0x00 (0000ms, 6104ms total)
T3A04 9468:035 JLINK_ClrBPEx(BPHandle = 0x00000004)  returns 0x00 (0000ms, 6104ms total)
T3A04 9468:035 JLINK_ReadMemU32(0xE000ED30, 0x0001 Items, ...) -- CPU_ReadMem(4 bytes @ 0xE000ED30) - Data: 03 00 00 00  returns 0x01 (0000ms, 6104ms total)
T3A04 9468:035 JLINK_ReadMemU32(0xE0001028, 0x0001 Items, ...) -- CPU_ReadMem(4 bytes @ 0xE0001028) - Data: 00 00 00 00  returns 0x01 (0001ms, 6105ms total)
T3A04 9468:036 JLINK_ReadMemU32(0xE0001038, 0x0001 Items, ...) -- CPU_ReadMem(4 bytes @ 0xE0001038) - Data: 00 02 00 00  returns 0x01 (0000ms, 6105ms total)
T3A04 9468:036 JLINK_ReadMemU32(0xE0001048, 0x0001 Items, ...) -- CPU_ReadMem(4 bytes @ 0xE0001048) - Data: 00 00 00 00  returns 0x01 (0001ms, 6106ms total)
T3A04 9468:037 JLINK_ReadMemU32(0xE0001058, 0x0001 Items, ...) -- CPU_ReadMem(4 bytes @ 0xE0001058) - Data: 00 00 00 00  returns 0x01 (0000ms, 6106ms total)
T3A04 9468:037 JLINK_ReadReg(R0)  returns 0x20000098 (0000ms, 6106ms total)
T3A04 9468:037 JLINK_ReadReg(R1)  returns 0x20000298 (0000ms, 6106ms total)
T3A04 9468:037 JLINK_ReadReg(R2)  returns 0x20000298 (0000ms, 6106ms total)
T3A04 9468:037 JLINK_ReadReg(R3)  returns 0x20000298 (0000ms, 6106ms total)
T3A04 9468:037 JLINK_ReadReg(R4)  returns 0x00000000 (0000ms, 6106ms total)
T3A04 9468:037 JLINK_ReadReg(R5)  returns 0x20000038 (0000ms, 6106ms total)
T3A04 9468:037 JLINK_ReadReg(R6)  returns 0x00000000 (0000ms, 6106ms total)
T3A04 9468:037 JLINK_ReadReg(R7)  returns 0x00000000 (0000ms, 6106ms total)
T3A04 9468:037 JLINK_ReadReg(R8)  returns 0x00000000 (0000ms, 6106ms total)
T3A04 9468:037 JLINK_ReadReg(R9)  returns 0x00000000 (0000ms, 6106ms total)
T3A04 9468:037 JLINK_ReadReg(R10)  returns 0x08000FB4 (0000ms, 6106ms total)
T3A04 9468:038 JLINK_ReadReg(R11)  returns 0x00000000 (0000ms, 6106ms total)
T3A04 9468:038 JLINK_ReadReg(R12)  returns 0x20000078 (0000ms, 6106ms total)
T3A04 9468:038 JLINK_ReadReg(R13 (SP))  returns 0x20000698 (0000ms, 6106ms total)
T3A04 9468:038 JLINK_ReadReg(R14)  returns 0x08000217 (0000ms, 6106ms total)
T3A04 9468:038 JLINK_ReadReg(R15 (PC))  returns 0x08000228 (0000ms, 6106ms total)
T3A04 9468:038 JLINK_ReadReg(XPSR)  returns 0x21000000 (0000ms, 6106ms total)
T3A04 9468:038 JLINK_ReadReg(MSP)  returns 0x20000698 (0000ms, 6106ms total)
T3A04 9468:038 JLINK_ReadReg(PSP)  returns 0x00000000 (0000ms, 6106ms total)
T3A04 9468:038 JLINK_ReadReg(CFBP)  returns 0x04000000 (0000ms, 6106ms total)
T3A04 9468:038 JLINK_ReadReg(FPSCR)  returns 0x03000000 (0003ms, 6109ms total)
T3A04 9468:041 JLINK_ReadReg(FPS0)  returns 0x00000000 (0000ms, 6109ms total)
T3A04 9468:041 JLINK_ReadReg(FPS1)  returns 0x00000000 (0000ms, 6109ms total)
T3A04 9468:041 JLINK_ReadReg(FPS2)  returns 0x00000000 (0000ms, 6109ms total)
T3A04 9468:041 JLINK_ReadReg(FPS3)  returns 0x00000000 (0000ms, 6109ms total)
T3A04 9468:041 JLINK_ReadReg(FPS4)  returns 0x00000000 (0000ms, 6109ms total)
T3A04 9468:041 JLINK_ReadReg(FPS5)  returns 0x00000000 (0000ms, 6109ms total)
T3A04 9468:041 JLINK_ReadReg(FPS6)  returns 0x00000000 (0000ms, 6109ms total)
T3A04 9468:041 JLINK_ReadReg(FPS7)  returns 0x00000000 (0000ms, 6109ms total)
T3A04 9468:041 JLINK_ReadReg(FPS8)  returns 0x00000000 (0000ms, 6109ms total)
T3A04 9468:041 JLINK_ReadReg(FPS9)  returns 0x00000000 (0000ms, 6109ms total)
T3A04 9468:041 JLINK_ReadReg(FPS10)  returns 0x00000000 (0000ms, 6109ms total)
T3A04 9468:041 JLINK_ReadReg(FPS11)  returns 0x00000000 (0000ms, 6109ms total)
T3A04 9468:041 JLINK_ReadReg(FPS12)  returns 0x00000000 (0000ms, 6109ms total)
T3A04 9468:041 JLINK_ReadReg(FPS13)  returns 0x00000000 (0001ms, 6110ms total)
T3A04 9468:042 JLINK_ReadReg(FPS14)  returns 0x00000000 (0000ms, 6110ms total)
T3A04 9468:042 JLINK_ReadReg(FPS15)  returns 0x00000000 (0000ms, 6110ms total)
T3A04 9468:042 JLINK_ReadReg(FPS16)  returns 0x00000000 (0000ms, 6110ms total)
T3A04 9468:042 JLINK_ReadReg(FPS17)  returns 0x00000000 (0000ms, 6110ms total)
T3A04 9468:042 JLINK_ReadReg(FPS18)  returns 0x00000000 (0000ms, 6110ms total)
T3A04 9468:042 JLINK_ReadReg(FPS19)  returns 0x00000000 (0000ms, 6110ms total)
T3A04 9468:042 JLINK_ReadReg(FPS20)  returns 0x00000000 (0000ms, 6110ms total)
T3A04 9468:042 JLINK_ReadReg(FPS21)  returns 0x00000000 (0000ms, 6110ms total)
T3A04 9468:042 JLINK_ReadReg(FPS22)  returns 0x00000000 (0000ms, 6110ms total)
T3A04 9468:042 JLINK_ReadReg(FPS23)  returns 0x00000000 (0000ms, 6110ms total)
T3A04 9468:042 JLINK_ReadReg(FPS24)  returns 0x00000000 (0000ms, 6110ms total)
T3A04 9468:042 JLINK_ReadReg(FPS25)  returns 0x00000000 (0000ms, 6110ms total)
T3A04 9468:042 JLINK_ReadReg(FPS26)  returns 0x00000000 (0000ms, 6110ms total)
T3A04 9468:042 JLINK_ReadReg(FPS27)  returns 0x00000000 (0000ms, 6110ms total)
T3A04 9468:042 JLINK_ReadReg(FPS28)  returns 0x00000000 (0000ms, 6110ms total)
T3A04 9468:042 JLINK_ReadReg(FPS29)  returns 0x00000000 (0000ms, 6110ms total)
T3A04 9468:042 JLINK_ReadReg(FPS30)  returns 0x00000000 (0000ms, 6110ms total)
T3A04 9468:042 JLINK_ReadReg(FPS31)  returns 0x00000000 (0000ms, 6110ms total)
T279C 9468:045 JLINK_ReadMemEx(0x20000010, 0x0004 Bytes, ..., AccessWidth = 33554432)Mis-aligned memory read: Address: 0x20000010, NumBytes: 4, Alignment: 2 (Halfword-aligned)
  ***** Mis-aligned memory read: Address: 0x20000010, NumBytes: 4, Alignment: 2 (Halfword-aligned) -- CPU_ReadMem(64 bytes @ 0x20000000) -- Updating C cache (64 bytes @ 0x20000000) -- Read from C cache (4 bytes @ 0x20000010) - Data: 00 00 00 00  returns 0x04 (0000ms, 6110ms total)
T279C 9468:047 JLINK_ReadMemEx(0x20000000, 0x0004 Bytes, ..., AccessWidth = 33554432)Mis-aligned memory read: Address: 0x20000000, NumBytes: 4, Alignment: 2 (Halfword-aligned)
  ***** Mis-aligned memory read: Address: 0x20000000, NumBytes: 4, Alignment: 2 (Halfword-aligned) -- Read from C cache (4 bytes @ 0x20000000) - Data: 00 00 00 00  returns 0x04 (0000ms, 6110ms total)
T279C 9468:049 JLINK_ReadMemEx(0x08000228, 0x003C Bytes, ..., AccessWidth = 33554432)Mis-aligned memory read: Address: 0x08000228, NumBytes: 60, Alignment: 2 (Halfword-aligned)
  ***** Mis-aligned memory read: Address: 0x08000228, NumBytes: 60, Alignment: 2 (Halfword-aligned) -- CPU_ReadMem(128 bytes @ 0x08000200) -- Updating C cache (128 bytes @ 0x08000200) -- Read from C cache (60 bytes @ 0x08000228) - Data: 08 B5 00 F0 18 F8 01 20 00 23 02 46 4F F4 C0 61 ...  returns 0x3C (0001ms, 6111ms total)
T279C 9468:050 JLINK_ReadMemEx(0x08000228, 0x0002 Bytes, ..., AccessWidth = 33554432)Mis-aligned memory read: Address: 0x08000228, NumBytes: 2, Alignment: 2 (Halfword-aligned)
  ***** Mis-aligned memory read: Address: 0x08000228, NumBytes: 2, Alignment: 2 (Halfword-aligned) -- Read from C cache (2 bytes @ 0x08000228) - Data: 08 B5  returns 0x02 (0000ms, 6111ms total)
T279C 9468:050 JLINK_ReadMemEx(0x0800022A, 0x0002 Bytes, ..., AccessWidth = 33554432)Mis-aligned memory read: Address: 0x0800022A, NumBytes: 2, Alignment: 2 (Halfword-aligned)
  ***** Mis-aligned memory read: Address: 0x0800022A, NumBytes: 2, Alignment: 2 (Halfword-aligned) -- Read from C cache (2 bytes @ 0x0800022A) - Data: 00 F0  returns 0x02 (0000ms, 6111ms total)
T279C 9468:574 JLINK_SetResetType(JLINKARM_RESET_TYPE_NORMAL)  returns JLINKARM_RESET_TYPE_NORMAL (0000ms, 6111ms total)
T279C 9468:574 JLINK_Reset() -- CPU_WriteMem(4 bytes @ 0xE000EDF0) -- CPU_WriteMem(4 bytes @ 0xE000EDFC) >0x35 TIF> -- CPU_WriteMem(4 bytes @ 0xE000ED0C) -- CPU_ReadMem(4 bytes @ 0xE000EDF0) -- CPU_ReadMem(4 bytes @ 0xE000EDF0) -- CPU_WriteMem(4 bytes @ 0xE000EDF0) -- CPU_WriteMem(4 bytes @ 0xE000EDFC) -- CPU is running -- CPU_ReadMem(4 bytes @ 0xE000EDF0) -- CPU_WriteMem(4 bytes @ 0xE0002000) -- CPU_ReadMem(4 bytes @ 0xE000EDFC) -- CPU_ReadMem(4 bytes @ 0xE0001000) (0017ms, 6128ms total)
T279C 9468:591 JLINK_ReadReg(R15 (PC))  returns 0x08000CBC (0000ms, 6128ms total)
T279C 9468:591 JLINK_ReadReg(XPSR)  returns 0x01000000 (0000ms, 6128ms total)
T279C 9468:598 JLINK_ReadMemEx(0x08000CBC, 0x003C Bytes, ..., AccessWidth = 33554432)Mis-aligned memory read: Address: 0x08000CBC, NumBytes: 60, Alignment: 2 (Halfword-aligned)
  ***** Mis-aligned memory read: Address: 0x08000CBC, NumBytes: 60, Alignment: 2 (Halfword-aligned) -- CPU_ReadMem(128 bytes @ 0x08000C80) -- Updating C cache (128 bytes @ 0x08000C80) -- Read from C cache (60 bytes @ 0x08000CBC) - Data: 09 48 80 47 09 48 00 47 FE E7 FE E7 FE E7 FE E7 ...  returns 0x3C (0002ms, 6130ms total)
T279C 9468:600 JLINK_ReadMemEx(0x08000CBC, 0x0002 Bytes, ..., AccessWidth = 33554432)Mis-aligned memory read: Address: 0x08000CBC, NumBytes: 2, Alignment: 2 (Halfword-aligned)
  ***** Mis-aligned memory read: Address: 0x08000CBC, NumBytes: 2, Alignment: 2 (Halfword-aligned) -- Read from C cache (2 bytes @ 0x08000CBC) - Data: 09 48  returns 0x02 (0000ms, 6130ms total)
T279C 9468:600 JLINK_ReadMemEx(0x08000CBE, 0x0002 Bytes, ..., AccessWidth = 33554432)Mis-aligned memory read: Address: 0x08000CBE, NumBytes: 2, Alignment: 2 (Halfword-aligned)
  ***** Mis-aligned memory read: Address: 0x08000CBE, NumBytes: 2, Alignment: 2 (Halfword-aligned) -- Read from C cache (2 bytes @ 0x08000CBE) - Data: 80 47  returns 0x02 (0000ms, 6130ms total)
T279C 9468:600 JLINK_ReadMemEx(0x08000CBE, 0x0002 Bytes, ..., AccessWidth = 33554432)Mis-aligned memory read: Address: 0x08000CBE, NumBytes: 2, Alignment: 2 (Halfword-aligned)
  ***** Mis-aligned memory read: Address: 0x08000CBE, NumBytes: 2, Alignment: 2 (Halfword-aligned) -- Read from C cache (2 bytes @ 0x08000CBE) - Data: 80 47  returns 0x02 (0000ms, 6130ms total)
T279C 9468:600 JLINK_ReadMemEx(0x08000CC0, 0x003C Bytes, ..., AccessWidth = 33554432)Mis-aligned memory read: Address: 0x08000CC0, NumBytes: 60, Alignment: 2 (Halfword-aligned)
  ***** Mis-aligned memory read: Address: 0x08000CC0, NumBytes: 60, Alignment: 2 (Halfword-aligned) -- Read from C cache (60 bytes @ 0x08000CC0) - Data: 09 48 00 47 FE E7 FE E7 FE E7 FE E7 FE E7 FE E7 ...  returns 0x3C (0000ms, 6130ms total)
T279C 9468:600 JLINK_ReadMemEx(0x08000CC0, 0x0002 Bytes, ..., AccessWidth = 33554432)Mis-aligned memory read: Address: 0x08000CC0, NumBytes: 2, Alignment: 2 (Halfword-aligned)
  ***** Mis-aligned memory read: Address: 0x08000CC0, NumBytes: 2, Alignment: 2 (Halfword-aligned) -- Read from C cache (2 bytes @ 0x08000CC0) - Data: 09 48  returns 0x02 (0000ms, 6130ms total)
T279C 9468:703 JLINK_ReadReg(R0)  returns 0x00000000 (0001ms, 6131ms total)
T279C 9468:704 JLINK_ReadReg(R1)  returns 0x00000000 (0000ms, 6131ms total)
T279C 9468:704 JLINK_ReadReg(R2)  returns 0x00000000 (0000ms, 6131ms total)
T279C 9468:704 JLINK_ReadReg(R3)  returns 0x00000000 (0000ms, 6131ms total)
T279C 9468:704 JLINK_ReadReg(R4)  returns 0x00000000 (0000ms, 6131ms total)
T279C 9468:704 JLINK_ReadReg(R5)  returns 0x00000000 (0000ms, 6131ms total)
T279C 9468:704 JLINK_ReadReg(R6)  returns 0x00000000 (0000ms, 6131ms total)
T279C 9468:704 JLINK_ReadReg(R7)  returns 0x00000000 (0000ms, 6131ms total)
T279C 9468:704 JLINK_ReadReg(R8)  returns 0x00000000 (0000ms, 6131ms total)
T279C 9468:704 JLINK_ReadReg(R9)  returns 0x00000000 (0000ms, 6131ms total)
T279C 9468:704 JLINK_ReadReg(R10)  returns 0x00000000 (0000ms, 6131ms total)
T279C 9468:704 JLINK_ReadReg(R11)  returns 0x00000000 (0000ms, 6131ms total)
T279C 9468:704 JLINK_ReadReg(R12)  returns 0x00000000 (0000ms, 6131ms total)
T279C 9468:704 JLINK_ReadReg(R13 (SP))  returns 0x20000698 (0000ms, 6131ms total)
T279C 9468:704 JLINK_ReadReg(R14)  returns 0xFFFFFFFF (0000ms, 6131ms total)
T279C 9468:704 JLINK_ReadReg(R15 (PC))  returns 0x08000CBC (0000ms, 6131ms total)
T279C 9468:704 JLINK_ReadReg(XPSR)  returns 0x01000000 (0000ms, 6131ms total)
T279C 9468:704 JLINK_ReadReg(MSP)  returns 0x20000698 (0000ms, 6131ms total)
T279C 9468:704 JLINK_ReadReg(PSP)  returns 0x00000000 (0000ms, 6131ms total)
T279C 9468:704 JLINK_ReadReg(CFBP)  returns 0x00000000 (0000ms, 6131ms total)
T279C 9468:704 JLINK_ReadReg(FPSCR)  returns 0x00000000 (0004ms, 6135ms total)
T279C 9468:708 JLINK_ReadReg(FPS0)  returns 0x00000000 (0000ms, 6135ms total)
T279C 9468:708 JLINK_ReadReg(FPS1)  returns 0x00000000 (0000ms, 6135ms total)
T279C 9468:708 JLINK_ReadReg(FPS2)  returns 0x00000000 (0000ms, 6135ms total)
T279C 9468:708 JLINK_ReadReg(FPS3)  returns 0x00000000 (0000ms, 6135ms total)
T279C 9468:708 JLINK_ReadReg(FPS4)  returns 0x00000000 (0000ms, 6135ms total)
T279C 9468:708 JLINK_ReadReg(FPS5)  returns 0x00000000 (0000ms, 6135ms total)
T279C 9468:708 JLINK_ReadReg(FPS6)  returns 0x00000000 (0000ms, 6135ms total)
T279C 9468:708 JLINK_ReadReg(FPS7)  returns 0x00000000 (0000ms, 6135ms total)
T279C 9468:708 JLINK_ReadReg(FPS8)  returns 0x00000000 (0000ms, 6135ms total)
T279C 9468:708 JLINK_ReadReg(FPS9)  returns 0x00000000 (0000ms, 6135ms total)
T279C 9468:708 JLINK_ReadReg(FPS10)  returns 0x00000000 (0000ms, 6135ms total)
T279C 9468:708 JLINK_ReadReg(FPS11)  returns 0x00000000 (0000ms, 6135ms total)
T279C 9468:708 JLINK_ReadReg(FPS12)  returns 0x00000000 (0000ms, 6135ms total)
T279C 9468:708 JLINK_ReadReg(FPS13)  returns 0x00000000 (0000ms, 6135ms total)
T279C 9468:708 JLINK_ReadReg(FPS14)  returns 0x00000000 (0000ms, 6135ms total)
T279C 9468:708 JLINK_ReadReg(FPS15)  returns 0x00000000 (0000ms, 6135ms total)
T279C 9468:708 JLINK_ReadReg(FPS16)  returns 0x00000000 (0000ms, 6135ms total)
T279C 9468:708 JLINK_ReadReg(FPS17)  returns 0x00000000 (0000ms, 6135ms total)
T279C 9468:708 JLINK_ReadReg(FPS18)  returns 0x00000000 (0000ms, 6135ms total)
T279C 9468:708 JLINK_ReadReg(FPS19)  returns 0x00000000 (0000ms, 6135ms total)
T279C 9468:708 JLINK_ReadReg(FPS20)  returns 0x00000000 (0000ms, 6135ms total)
T279C 9468:708 JLINK_ReadReg(FPS21)  returns 0x00000000 (0000ms, 6135ms total)
T279C 9468:708 JLINK_ReadReg(FPS22)  returns 0x00000000 (0000ms, 6135ms total)
T279C 9468:708 JLINK_ReadReg(FPS23)  returns 0x00000000 (0000ms, 6135ms total)
T279C 9468:708 JLINK_ReadReg(FPS24)  returns 0x00000000 (0000ms, 6135ms total)
T279C 9468:708 JLINK_ReadReg(FPS25)  returns 0x00000000 (0000ms, 6135ms total)
T279C 9468:708 JLINK_ReadReg(FPS26)  returns 0x00000000 (0000ms, 6135ms total)
T279C 9468:708 JLINK_ReadReg(FPS27)  returns 0x00000000 (0000ms, 6135ms total)
T279C 9468:708 JLINK_ReadReg(FPS28)  returns 0x00000000 (0000ms, 6135ms total)
T279C 9468:708 JLINK_ReadReg(FPS29)  returns 0x00000000 (0000ms, 6135ms total)
T279C 9468:708 JLINK_ReadReg(FPS30)  returns 0x00000000 (0000ms, 6135ms total)
T279C 9468:708 JLINK_ReadReg(FPS31)  returns 0x00000000 (0000ms, 6135ms total)
T279C 9468:708 JLINK_ReadMemEx(0x20000010, 0x0004 Bytes, ..., AccessWidth = 33554432)Mis-aligned memory read: Address: 0x20000010, NumBytes: 4, Alignment: 2 (Halfword-aligned)
  ***** Mis-aligned memory read: Address: 0x20000010, NumBytes: 4, Alignment: 2 (Halfword-aligned) -- CPU_ReadMem(64 bytes @ 0x20000000) -- Updating C cache (64 bytes @ 0x20000000) -- Read from C cache (4 bytes @ 0x20000010) - Data: 00 00 00 00  returns 0x04 (0001ms, 6136ms total)
T279C 9468:711 JLINK_ReadMemEx(0x20000000, 0x0004 Bytes, ..., AccessWidth = 33554432)Mis-aligned memory read: Address: 0x20000000, NumBytes: 4, Alignment: 2 (Halfword-aligned)
  ***** Mis-aligned memory read: Address: 0x20000000, NumBytes: 4, Alignment: 2 (Halfword-aligned) -- Read from C cache (4 bytes @ 0x20000000) - Data: 00 00 00 00  returns 0x04 (0000ms, 6136ms total)
T3A04 9469:494 JLINK_ReadMemEx(0x08000CBC, 0x0002 Bytes, ..., AccessWidth = 33554432)Mis-aligned memory read: Address: 0x08000CBC, NumBytes: 2, Alignment: 2 (Halfword-aligned)
  ***** Mis-aligned memory read: Address: 0x08000CBC, NumBytes: 2, Alignment: 2 (Halfword-aligned) -- Read from C cache (2 bytes @ 0x08000CBC) - Data: 09 48  returns 0x02 (0001ms, 6137ms total)
T3A04 9469:495 JLINK_SetBPEx(Addr = 0x080002D2, Type = 0xFFFFFFF2)  returns 0x00000005 (0000ms, 6137ms total)
T3A04 9469:495 JLINK_SetBPEx(Addr = 0x08000240, Type = 0xFFFFFFF2)  returns 0x00000006 (0000ms, 6137ms total)
T3A04 9469:495 JLINK_SetBPEx(Addr = 0x0800024A, Type = 0xFFFFFFF2)  returns 0x00000007 (0000ms, 6137ms total)
T3A04 9469:495 JLINK_Go() -- CPU_WriteMem(4 bytes @ 0xE0002000) -- CPU_WriteMem(4 bytes @ 0xE0002000) -- CPU_WriteMem(4 bytes @ 0xE0002000) -- CPU_WriteMem(4 bytes @ 0xE0002008) -- CPU_WriteMem(4 bytes @ 0xE000200C) -- CPU_WriteMem(4 bytes @ 0xE0002010) -- CPU_WriteMem(4 bytes @ 0xE0002014) -- CPU_WriteMem(4 bytes @ 0xE0002018) -- CPU_WriteMem(4 bytes @ 0xE000201C) -- CPU_WriteMem(4 bytes @ 0xE0001004) (0004ms, 6141ms total)
T3A04 9469:601 JLINK_IsHalted()  returns TRUE (0002ms, 6143ms total)
T3A04 9469:603 JLINK_Halt()  returns 0x00 (0000ms, 6141ms total)
T3A04 9469:603 JLINK_IsHalted()  returns TRUE (0000ms, 6141ms total)
T3A04 9469:603 JLINK_IsHalted()  returns TRUE (0000ms, 6141ms total)
T3A04 9469:603 JLINK_IsHalted()  returns TRUE (0000ms, 6141ms total)
T3A04 9469:604 JLINK_ReadReg(R15 (PC))  returns 0x08000240 (0000ms, 6141ms total)
T3A04 9469:604 JLINK_ReadReg(XPSR)  returns 0x61000000 (0000ms, 6141ms total)
T3A04 9469:604 JLINK_ClrBPEx(BPHandle = 0x00000005)  returns 0x00 (0000ms, 6141ms total)
T3A04 9469:604 JLINK_ClrBPEx(BPHandle = 0x00000006)  returns 0x00 (0000ms, 6141ms total)
T3A04 9469:604 JLINK_ClrBPEx(BPHandle = 0x00000007)  returns 0x00 (0000ms, 6141ms total)
T3A04 9469:604 JLINK_ReadMemU32(0xE000ED30, 0x0001 Items, ...) -- CPU_ReadMem(4 bytes @ 0xE000ED30) - Data: 03 00 00 00  returns 0x01 (0001ms, 6142ms total)
T3A04 9469:605 JLINK_ReadMemU32(0xE0001028, 0x0001 Items, ...) -- CPU_ReadMem(4 bytes @ 0xE0001028) - Data: 00 00 00 00  returns 0x01 (0000ms, 6142ms total)
T3A04 9469:605 JLINK_ReadMemU32(0xE0001038, 0x0001 Items, ...) -- CPU_ReadMem(4 bytes @ 0xE0001038) - Data: 00 02 00 00  returns 0x01 (0001ms, 6143ms total)
T3A04 9469:606 JLINK_ReadMemU32(0xE0001048, 0x0001 Items, ...) -- CPU_ReadMem(4 bytes @ 0xE0001048) - Data: 00 00 00 00  returns 0x01 (0001ms, 6144ms total)
T3A04 9469:607 JLINK_ReadMemU32(0xE0001058, 0x0001 Items, ...) -- CPU_ReadMem(4 bytes @ 0xE0001058) - Data: 00 00 00 00  returns 0x01 (0001ms, 6145ms total)
T3A04 9469:608 JLINK_ReadReg(R0)  returns 0x40021400 (0001ms, 6146ms total)
T3A04 9469:609 JLINK_ReadReg(R1)  returns 0x00000010 (0000ms, 6146ms total)
T3A04 9469:609 JLINK_ReadReg(R2)  returns 0x00000600 (0000ms, 6146ms total)
T3A04 9469:609 JLINK_ReadReg(R3)  returns 0x01000201 (0000ms, 6146ms total)
T3A04 9469:609 JLINK_ReadReg(R4)  returns 0x00000000 (0000ms, 6146ms total)
T3A04 9469:609 JLINK_ReadReg(R5)  returns 0x20000038 (0000ms, 6146ms total)
T3A04 9469:609 JLINK_ReadReg(R6)  returns 0x00000000 (0000ms, 6146ms total)
T3A04 9469:609 JLINK_ReadReg(R7)  returns 0x00000000 (0000ms, 6146ms total)
T3A04 9469:609 JLINK_ReadReg(R8)  returns 0x00000000 (0000ms, 6146ms total)
T3A04 9469:609 JLINK_ReadReg(R9)  returns 0x00000000 (0000ms, 6146ms total)
T3A04 9469:609 JLINK_ReadReg(R10)  returns 0x08000FB4 (0000ms, 6146ms total)
T3A04 9469:609 JLINK_ReadReg(R11)  returns 0x00000000 (0000ms, 6146ms total)
T3A04 9469:609 JLINK_ReadReg(R12)  returns 0x20000078 (0000ms, 6146ms total)
T3A04 9469:609 JLINK_ReadReg(R13 (SP))  returns 0x20000690 (0001ms, 6147ms total)
T3A04 9469:610 JLINK_ReadReg(R14)  returns 0x080003EB (0000ms, 6147ms total)
T3A04 9469:610 JLINK_ReadReg(R15 (PC))  returns 0x08000240 (0000ms, 6147ms total)
T3A04 9469:610 JLINK_ReadReg(XPSR)  returns 0x61000000 (0000ms, 6147ms total)
T3A04 9469:610 JLINK_ReadReg(MSP)  returns 0x20000690 (0000ms, 6147ms total)
T3A04 9469:610 JLINK_ReadReg(PSP)  returns 0x00000000 (0000ms, 6147ms total)
T3A04 9469:610 JLINK_ReadReg(CFBP)  returns 0x04000000 (0000ms, 6147ms total)
T3A04 9469:610 JLINK_ReadReg(FPSCR)  returns 0x03000000 (0004ms, 6151ms total)
T3A04 9469:614 JLINK_ReadReg(FPS0)  returns 0x00000000 (0000ms, 6151ms total)
T3A04 9469:614 JLINK_ReadReg(FPS1)  returns 0x00000000 (0000ms, 6151ms total)
T3A04 9469:614 JLINK_ReadReg(FPS2)  returns 0x00000000 (0000ms, 6151ms total)
T3A04 9469:614 JLINK_ReadReg(FPS3)  returns 0x00000000 (0000ms, 6151ms total)
T3A04 9469:614 JLINK_ReadReg(FPS4)  returns 0x00000000 (0000ms, 6151ms total)
T3A04 9469:614 JLINK_ReadReg(FPS5)  returns 0x00000000 (0000ms, 6151ms total)
T3A04 9469:614 JLINK_ReadReg(FPS6)  returns 0x00000000 (0000ms, 6151ms total)
T3A04 9469:614 JLINK_ReadReg(FPS7)  returns 0x00000000 (0000ms, 6151ms total)
T3A04 9469:614 JLINK_ReadReg(FPS8)  returns 0x00000000 (0000ms, 6151ms total)
T3A04 9469:614 JLINK_ReadReg(FPS9)  returns 0x00000000 (0001ms, 6152ms total)
T3A04 9469:615 JLINK_ReadReg(FPS10)  returns 0x00000000 (0000ms, 6152ms total)
T3A04 9469:615 JLINK_ReadReg(FPS11)  returns 0x00000000 (0000ms, 6152ms total)
T3A04 9469:615 JLINK_ReadReg(FPS12)  returns 0x00000000 (0000ms, 6152ms total)
T3A04 9469:615 JLINK_ReadReg(FPS13)  returns 0x00000000 (0000ms, 6152ms total)
T3A04 9469:615 JLINK_ReadReg(FPS14)  returns 0x00000000 (0000ms, 6152ms total)
T3A04 9469:615 JLINK_ReadReg(FPS15)  returns 0x00000000 (0000ms, 6152ms total)
T3A04 9469:615 JLINK_ReadReg(FPS16)  returns 0x00000000 (0000ms, 6152ms total)
T3A04 9469:615 JLINK_ReadReg(FPS17)  returns 0x00000000 (0000ms, 6152ms total)
T3A04 9469:615 JLINK_ReadReg(FPS18)  returns 0x00000000 (0000ms, 6152ms total)
T3A04 9469:615 JLINK_ReadReg(FPS19)  returns 0x00000000 (0000ms, 6152ms total)
T3A04 9469:615 JLINK_ReadReg(FPS20)  returns 0x00000000 (0000ms, 6152ms total)
T3A04 9469:615 JLINK_ReadReg(FPS21)  returns 0x00000000 (0000ms, 6152ms total)
T3A04 9469:615 JLINK_ReadReg(FPS22)  returns 0x00000000 (0001ms, 6153ms total)
T3A04 9469:616 JLINK_ReadReg(FPS23)  returns 0x00000000 (0000ms, 6153ms total)
T3A04 9469:616 JLINK_ReadReg(FPS24)  returns 0x00000000 (0000ms, 6153ms total)
T3A04 9469:616 JLINK_ReadReg(FPS25)  returns 0x00000000 (0000ms, 6153ms total)
T3A04 9469:616 JLINK_ReadReg(FPS26)  returns 0x00000000 (0000ms, 6153ms total)
T3A04 9469:616 JLINK_ReadReg(FPS27)  returns 0x00000000 (0000ms, 6153ms total)
T3A04 9469:616 JLINK_ReadReg(FPS28)  returns 0x00000000 (0000ms, 6153ms total)
T3A04 9469:616 JLINK_ReadReg(FPS29)  returns 0x00000000 (0000ms, 6153ms total)
T3A04 9469:616 JLINK_ReadReg(FPS30)  returns 0x00000000 (0000ms, 6153ms total)
T3A04 9469:616 JLINK_ReadReg(FPS31)  returns 0x00000000 (0000ms, 6153ms total)
T279C 9469:623 JLINK_ReadMemEx(0x20000694, 0x0004 Bytes, ..., AccessWidth = 33554432)Mis-aligned memory read: Address: 0x20000694, NumBytes: 4, Alignment: 2 (Halfword-aligned)
  ***** Mis-aligned memory read: Address: 0x20000694, NumBytes: 4, Alignment: 2 (Halfword-aligned) -- CPU_ReadMem(64 bytes @ 0x20000680) -- Updating C cache (64 bytes @ 0x20000680) -- Read from C cache (4 bytes @ 0x20000694) - Data: 17 02 00 08  returns 0x04 (0001ms, 6154ms total)
T279C 9469:631 JLINK_ReadMemEx(0x20000010, 0x0004 Bytes, ..., AccessWidth = 33554432)Mis-aligned memory read: Address: 0x20000010, NumBytes: 4, Alignment: 2 (Halfword-aligned)
  ***** Mis-aligned memory read: Address: 0x20000010, NumBytes: 4, Alignment: 2 (Halfword-aligned) -- CPU_ReadMem(64 bytes @ 0x20000000) -- Updating C cache (64 bytes @ 0x20000000) -- Read from C cache (4 bytes @ 0x20000010) - Data: 00 00 00 00  returns 0x04 (0002ms, 6156ms total)
T279C 9469:637 JLINK_ReadMemEx(0x20000000, 0x0004 Bytes, ..., AccessWidth = 33554432)Mis-aligned memory read: Address: 0x20000000, NumBytes: 4, Alignment: 2 (Halfword-aligned)
  ***** Mis-aligned memory read: Address: 0x20000000, NumBytes: 4, Alignment: 2 (Halfword-aligned) -- Read from C cache (4 bytes @ 0x20000000) - Data: 00 00 00 00  returns 0x04 (0000ms, 6156ms total)
T279C 9469:644 JLINK_ReadMemEx(0x08000240, 0x003C Bytes, ..., AccessWidth = 33554432)Mis-aligned memory read: Address: 0x08000240, NumBytes: 60, Alignment: 2 (Halfword-aligned)
  ***** Mis-aligned memory read: Address: 0x08000240, NumBytes: 60, Alignment: 2 (Halfword-aligned) -- CPU_ReadMem(64 bytes @ 0x08000240) -- Updating C cache (64 bytes @ 0x08000240) -- Read from C cache (60 bytes @ 0x08000240) - Data: 4F F4 00 71 04 48 00 F0 D9 F9 4F F4 80 61 02 48 ...  returns 0x3C (0002ms, 6158ms total)
T279C 9469:646 JLINK_ReadMemEx(0x08000240, 0x0002 Bytes, ..., AccessWidth = 33554432)Mis-aligned memory read: Address: 0x08000240, NumBytes: 2, Alignment: 2 (Halfword-aligned)
  ***** Mis-aligned memory read: Address: 0x08000240, NumBytes: 2, Alignment: 2 (Halfword-aligned) -- Read from C cache (2 bytes @ 0x08000240) - Data: 4F F4  returns 0x02 (0000ms, 6158ms total)
T279C 9469:646 JLINK_ReadMemEx(0x08000242, 0x0002 Bytes, ..., AccessWidth = 33554432)Mis-aligned memory read: Address: 0x08000242, NumBytes: 2, Alignment: 2 (Halfword-aligned)
  ***** Mis-aligned memory read: Address: 0x08000242, NumBytes: 2, Alignment: 2 (Halfword-aligned) -- Read from C cache (2 bytes @ 0x08000242) - Data: 00 71  returns 0x02 (0000ms, 6158ms total)
T279C 9469:646 JLINK_ReadMemEx(0x08000244, 0x003C Bytes, ..., AccessWidth = 33554432)Mis-aligned memory read: Address: 0x08000244, NumBytes: 60, Alignment: 2 (Halfword-aligned)
  ***** Mis-aligned memory read: Address: 0x08000244, NumBytes: 60, Alignment: 2 (Halfword-aligned) -- Read from C cache (60 bytes @ 0x08000244) - Data: 04 48 00 F0 D9 F9 4F F4 80 61 02 48 00 F0 D2 F9 ...  returns 0x3C (0000ms, 6158ms total)
T279C 9469:646 JLINK_ReadMemEx(0x08000244, 0x0002 Bytes, ..., AccessWidth = 33554432)Mis-aligned memory read: Address: 0x08000244, NumBytes: 2, Alignment: 2 (Halfword-aligned)
  ***** Mis-aligned memory read: Address: 0x08000244, NumBytes: 2, Alignment: 2 (Halfword-aligned) -- Read from C cache (2 bytes @ 0x08000244) - Data: 04 48  returns 0x02 (0000ms, 6158ms total)
T279C 9469:646 JLINK_ReadMemEx(0x08000246, 0x0002 Bytes, ..., AccessWidth = 33554432)Mis-aligned memory read: Address: 0x08000246, NumBytes: 2, Alignment: 2 (Halfword-aligned)
  ***** Mis-aligned memory read: Address: 0x08000246, NumBytes: 2, Alignment: 2 (Halfword-aligned) -- Read from C cache (2 bytes @ 0x08000246) - Data: 00 F0  returns 0x02 (0001ms, 6159ms total)
T279C 9469:647 JLINK_ReadMemEx(0x08000246, 0x0002 Bytes, ..., AccessWidth = 33554432)Mis-aligned memory read: Address: 0x08000246, NumBytes: 2, Alignment: 2 (Halfword-aligned)
  ***** Mis-aligned memory read: Address: 0x08000246, NumBytes: 2, Alignment: 2 (Halfword-aligned) -- Read from C cache (2 bytes @ 0x08000246) - Data: 00 F0  returns 0x02 (0000ms, 6159ms total)
T279C 9469:647 JLINK_ReadMemEx(0x08000248, 0x003C Bytes, ..., AccessWidth = 33554432)Mis-aligned memory read: Address: 0x08000248, NumBytes: 60, Alignment: 2 (Halfword-aligned)
  ***** Mis-aligned memory read: Address: 0x08000248, NumBytes: 60, Alignment: 2 (Halfword-aligned) -- CPU_ReadMem(64 bytes @ 0x08000280) -- Updating C cache (64 bytes @ 0x08000280) -- Read from C cache (60 bytes @ 0x08000248) - Data: D9 F9 4F F4 80 61 02 48 00 F0 D2 F9 00 20 08 BD ...  returns 0x3C (0001ms, 6160ms total)
T279C 9469:648 JLINK_ReadMemEx(0x08000248, 0x0002 Bytes, ..., AccessWidth = 33554432)Mis-aligned memory read: Address: 0x08000248, NumBytes: 2, Alignment: 2 (Halfword-aligned)
  ***** Mis-aligned memory read: Address: 0x08000248, NumBytes: 2, Alignment: 2 (Halfword-aligned) -- Read from C cache (2 bytes @ 0x08000248) - Data: D9 F9  returns 0x02 (0000ms, 6160ms total)
T3A04 9472:465 JLINK_ReadMemEx(0x08000240, 0x0002 Bytes, ..., AccessWidth = 33554432)Mis-aligned memory read: Address: 0x08000240, NumBytes: 2, Alignment: 2 (Halfword-aligned)
  ***** Mis-aligned memory read: Address: 0x08000240, NumBytes: 2, Alignment: 2 (Halfword-aligned) -- Read from C cache (2 bytes @ 0x08000240) - Data: 4F F4  returns 0x02 (0001ms, 6161ms total)
T3A04 9472:466 JLINK_Step() -- Read from C cache (2 bytes @ 0x08000240) -- CPU_ReadMem(4 bytes @ 0xE0001004) -- Read from C cache (2 bytes @ 0x08000242) -- Simulated  returns 0x00 (0001ms, 6162ms total)
T3A04 9472:467 JLINK_ReadReg(R15 (PC))  returns 0x08000244 (0000ms, 6162ms total)
T3A04 9472:467 JLINK_ReadReg(XPSR)  returns 0x61000000 (0000ms, 6162ms total)
T3A04 9472:467 JLINK_SetBPEx(Addr = 0x080002D2, Type = 0xFFFFFFF2)  returns 0x00000008 (0000ms, 6162ms total)
T3A04 9472:467 JLINK_SetBPEx(Addr = 0x08000240, Type = 0xFFFFFFF2)  returns 0x00000009 (0000ms, 6162ms total)
T3A04 9472:467 JLINK_SetBPEx(Addr = 0x0800024A, Type = 0xFFFFFFF2)  returns 0x0000000A (0000ms, 6162ms total)
T3A04 9472:467 JLINK_Go() -- CPU_WriteMem(4 bytes @ 0xE0002000) -- CPU_WriteMem(4 bytes @ 0xE0002000) -- CPU_WriteMem(4 bytes @ 0xE0002000) -- CPU_WriteMem(4 bytes @ 0xE0001004) (0003ms, 6165ms total)
T3A04 9472:570 JLINK_IsHalted()  returns TRUE (0002ms, 6167ms total)
T3A04 9472:572 JLINK_Halt()  returns 0x00 (0000ms, 6165ms total)
T3A04 9472:572 JLINK_IsHalted()  returns TRUE (0000ms, 6165ms total)
T3A04 9472:572 JLINK_IsHalted()  returns TRUE (0000ms, 6165ms total)
T3A04 9472:572 JLINK_IsHalted()  returns TRUE (0000ms, 6165ms total)
T3A04 9472:572 JLINK_ReadReg(R15 (PC))  returns 0x0800024A (0000ms, 6165ms total)
T3A04 9472:572 JLINK_ReadReg(XPSR)  returns 0x61000000 (0000ms, 6165ms total)
T3A04 9472:572 JLINK_ClrBPEx(BPHandle = 0x00000008)  returns 0x00 (0000ms, 6165ms total)
T3A04 9472:572 JLINK_ClrBPEx(BPHandle = 0x00000009)  returns 0x00 (0001ms, 6166ms total)
T3A04 9472:573 JLINK_ClrBPEx(BPHandle = 0x0000000A)  returns 0x00 (0000ms, 6166ms total)
T3A04 9472:573 JLINK_ReadMemU32(0xE000ED30, 0x0001 Items, ...) -- CPU_ReadMem(4 bytes @ 0xE000ED30) - Data: 03 00 00 00  returns 0x01 (0000ms, 6166ms total)
T3A04 9472:573 JLINK_ReadMemU32(0xE0001028, 0x0001 Items, ...) -- CPU_ReadMem(4 bytes @ 0xE0001028) - Data: 00 00 00 00  returns 0x01 (0001ms, 6167ms total)
T3A04 9472:574 JLINK_ReadMemU32(0xE0001038, 0x0001 Items, ...) -- CPU_ReadMem(4 bytes @ 0xE0001038) - Data: 00 02 00 00  returns 0x01 (0000ms, 6167ms total)
T3A04 9472:574 JLINK_ReadMemU32(0xE0001048, 0x0001 Items, ...) -- CPU_ReadMem(4 bytes @ 0xE0001048) - Data: 00 00 00 00  returns 0x01 (0001ms, 6168ms total)
T3A04 9472:575 JLINK_ReadMemU32(0xE0001058, 0x0001 Items, ...) -- CPU_ReadMem(4 bytes @ 0xE0001058) - Data: 00 00 00 00  returns 0x01 (0001ms, 6169ms total)
T3A04 9472:576 JLINK_ReadReg(R0)  returns 0x40021400 (0000ms, 6169ms total)
T3A04 9472:576 JLINK_ReadReg(R1)  returns 0x00000200 (0000ms, 6169ms total)
T3A04 9472:576 JLINK_ReadReg(R2)  returns 0x00000600 (0000ms, 6169ms total)
T3A04 9472:576 JLINK_ReadReg(R3)  returns 0x01000201 (0000ms, 6169ms total)
T3A04 9472:576 JLINK_ReadReg(R4)  returns 0x00000000 (0000ms, 6169ms total)
T3A04 9472:576 JLINK_ReadReg(R5)  returns 0x20000038 (0000ms, 6169ms total)
